T45F4 000:006.740   SEGGER J-Link V6.60f Log File
T45F4 000:006.814   DLL Compiled: Jan 20 2020 16:15:17
T45F4 000:006.824   Logging started @ 2025-10-31 00:57
T45F4 000:006.836 JLINK_SetWarnOutHandler(...)
T45F4 000:006.847 - 0.015ms
T45F4 000:006.858 JLINK_OpenEx(...)
T45F4 000:014.507   Firmware: J-Link Pro V4 V11 PLUS Feb compiled 20 2025 16:24:17 
T45F4 000:023.537   Hardware: V11.00
T45F4 000:023.566   S/N: 601024228
T45F4 000:023.581   OEM: SEGGER
T45F4 000:023.596   Feature(s): FlashBP, GDB, JFlash, FlashDL, RDI
T45F4 000:024.743   TELNET listener socket opened on port 19021
T45F4 000:024.816   WEBSRV Starting webserver
T45F4 000:024.872   WEBSRV Failed to put socket into listener state (port 19080)
T45F4 000:024.919   WEBSRV Webserver running on local port 19081
T45F4 000:024.935 - 18.082ms returns "O.K."
T45F4 000:024.967 JLINK_GetEmuCaps()
T45F4 000:024.977 - 0.016ms returns 0xB9FF7BBF
T45F4 000:024.990 JLINK_TIF_GetAvailable(...)
T45F4 000:025.186 - 0.202ms
T45F4 000:025.210 JLINK_SetErrorOutHandler(...)
T45F4 000:025.220 - 0.015ms
T45F4 000:025.238 JLINK_ExecCommand("ProjectFile = "D:\soft\vscode\git\LCD_hc32f460\projects\ev_hc32f460_lqfp100_v2\examples\usart\usart_uart_int\MDK\JLinkSettings.ini"", ...). 
T45F4 000:026.097   Ref file found at: D:\soft\keilMDK\ARM\Segger\JLinkDevices.ref
T45F4 000:026.209   XML referenced by ref file: C:\Program Files (x86)\SEGGER\JLink\JLinkDevices.xml
T45F4 000:026.912   C:\Program Files (x86)\SEGGER\JLink\JLinkDevices.xml evaluated successfully.
T45F4 000:103.519   Device "CORTEX-M4" selected.
T45F4 000:103.711 - 78.483ms returns 0x00
T45F4 000:103.749 JLINK_ExecCommand("Device = HC32F460PETB", ...). 
T45F4 000:103.862   Device "CORTEX-M4" selected.
T45F4 000:104.150 - 0.395ms returns 0x00
T45F4 000:104.164 JLINK_ExecCommand("DisableConnectionTimeout", ...). 
T45F4 000:104.179 - 0.008ms returns 0x01
T45F4 000:104.191 JLINK_GetHardwareVersion()
T45F4 000:104.202 - 0.016ms returns 0x1ADB0
T45F4 000:104.214 JLINK_GetDLLVersion()  returns 66006
T45F4 000:104.228 JLINK_GetFirmwareString(...)
T45F4 000:104.239 - 0.015ms
T45F4 000:104.260 JLINK_GetDLLVersion()  returns 66006
T45F4 000:104.271 JLINK_GetCompileDateTime()
T45F4 000:104.281 - 0.015ms
T45F4 000:104.306 JLINK_GetFirmwareString(...)
T45F4 000:104.317 - 0.016ms
T45F4 000:104.331 JLINK_GetHardwareVersion()
T45F4 000:104.344 - 0.017ms returns 0x1ADB0
T45F4 000:104.365 JLINK_TIF_Select(JLINKARM_TIF_SWD)
T45F4 000:105.633 - 1.278ms returns 0x00
T45F4 000:105.666 JLINK_SetSpeed(50000)
T45F4 000:105.973 - 0.312ms
T45F4 000:105.994 JLINK_GetId()
T45F4 000:106.792   Found SW-DP with ID 0x2BA01477
T45F4 000:109.855   Scanning AP map to find all available APs
T45F4 000:112.806   AP[1]: Stopped AP scan as end of AP map has been reached
T45F4 000:112.826   AP[0]: AHB-AP (IDR: 0x24770011)
T45F4 000:112.843   Iterating through AP map to find AHB-AP to use
T45F4 000:118.621   AP[0]: Core found
T45F4 000:118.645   AP[0]: AHB-AP ROM base: 0xE00FF000
T45F4 000:121.380   CPUID register: 0x410FC241. Implementer code: 0x41 (ARM)
T45F4 000:121.397   Found Cortex-M4 r0p1, Little endian.
T45F4 000:222.819    -- Max. mem block: 0x00005AC8
T45F4 000:222.900    -- CPU_ReadMem(4 bytes @ 0xE000EDF0)
T45F4 000:225.747    -- CPU_ReadMem(4 bytes @ 0xE0002000)
T45F4 000:226.221   FPUnit: 6 code (BP) slots and 2 literal slots
T45F4 000:226.279    -- CPU_ReadMem(4 bytes @ 0xE000EDFC)
T45F4 000:226.645    -- CPU_ReadMem(4 bytes @ 0xE0001000)
T45F4 000:227.057    -- CPU_WriteMem(4 bytes @ 0xE0001000)
T45F4 000:227.468    -- CPU_ReadMem(4 bytes @ 0xE000ED88)
T45F4 000:227.920    -- CPU_WriteMem(4 bytes @ 0xE000ED88)
T45F4 000:228.410    -- CPU_ReadMem(4 bytes @ 0xE000ED88)
T45F4 000:228.625    -- CPU_WriteMem(4 bytes @ 0xE000ED88)
T45F4 000:228.858   CoreSight components:
T45F4 000:228.878   ROMTbl[0] @ E00FF000
T45F4 000:228.893    -- CPU_ReadMem(16 bytes @ 0xE00FF000)
T45F4 000:229.210    -- CPU_ReadMem(16 bytes @ 0xE000EFF0)
T45F4 000:229.497    -- CPU_ReadMem(16 bytes @ 0xE000EFE0)
T45F4 000:229.709   ROMTbl[0][0]: E000E000, CID: B105E00D, PID: 000BB00C SCS-M7
T45F4 000:229.768    -- CPU_ReadMem(16 bytes @ 0xE0001FF0)
T45F4 000:229.987    -- CPU_ReadMem(16 bytes @ 0xE0001FE0)
T45F4 000:230.228   ROMTbl[0][1]: E0001000, CID: B105E00D, PID: 003BB002 DWT
T45F4 000:230.243    -- CPU_ReadMem(16 bytes @ 0xE0002FF0)
T45F4 000:230.452    -- CPU_ReadMem(16 bytes @ 0xE0002FE0)
T45F4 000:230.642   ROMTbl[0][2]: E0002000, CID: B105E00D, PID: 002BB003 FPB
T45F4 000:230.658    -- CPU_ReadMem(16 bytes @ 0xE0000FF0)
T45F4 000:230.922    -- CPU_ReadMem(16 bytes @ 0xE0000FE0)
T45F4 000:231.205   ROMTbl[0][3]: E0000000, CID: B105E00D, PID: 003BB001 ITM
T45F4 000:231.220    -- CPU_ReadMem(16 bytes @ 0xE00FF010)
T45F4 000:231.432    -- CPU_ReadMem(16 bytes @ 0xE0040FF0)
T45F4 000:231.653    -- CPU_ReadMem(16 bytes @ 0xE0040FE0)
T45F4 000:231.923   ROMTbl[0][4]: E0040000, CID: B105900D, PID: 000BB9A1 TPIU
T45F4 000:232.357 - 126.370ms   returns 0x2BA01477
T45F4 000:232.384 JLINK_GetDLLVersion()  returns 66006
T45F4 000:232.395 JLINK_CORE_GetFound()
T45F4 000:232.405 - 0.014ms returns 0xE0000FF
T45F4 000:232.415 JLINK_GetDebugInfo(0x100 = JLINKARM_ROM_TABLE_ADDR_INDEX)
T45F4 000:232.425   Value=0xE00FF000
T45F4 000:232.439 - 0.028ms returns 0x00
T45F4 000:232.453 JLINK_GetDebugInfo(0x100 = JLINKARM_ROM_TABLE_ADDR_INDEX)
T45F4 000:232.463   Value=0xE00FF000
T45F4 000:232.476 - 0.028ms returns 0x00
T45F4 000:232.486 JLINK_GetDebugInfo(0x101 = JLINKARM_DEBUG_INFO_ETM_ADDR_INDEX)
T45F4 000:232.496   Value=0x00000000
T45F4 000:232.510 - 0.028ms returns 0x00
T45F4 000:232.523   JLINK_ReadMemEx(0xE0041FF0, 0x0010 Bytes, ..., Flags = 0x02000004)
T45F4 000:232.545    -- CPU_ReadMem(16 bytes @ 0xE0041FF0)
T45F4 000:238.446   Data:  00 00 00 00 00 00 00 00 00 00 00 00 00 00 00 00
T45F4 000:238.464 - 5.946ms returns 0x10
T45F4 000:238.493 JLINK_GetDebugInfo(0x102 = JLINKARM_DEBUG_INFO_MTB_ADDR_INDEX)
T45F4 000:238.504   Value=0x00000000
T45F4 000:238.518 - 0.029ms returns 0x00
T45F4 000:238.529 JLINK_GetDebugInfo(0x103 = JLINKARM_DEBUG_INFO_TPIU_ADDR_INDEX)
T45F4 000:238.539   Value=0xE0040000
T45F4 000:238.552 - 0.028ms returns 0x00
T45F4 000:238.563 JLINK_GetDebugInfo(0x104 = JLINKARM_DEBUG_INFO_ITM_ADDR_INDEX)
T45F4 000:238.573   Value=0xE0000000
T45F4 000:238.586 - 0.027ms returns 0x00
T45F4 000:238.597 JLINK_GetDebugInfo(0x105 = JLINKARM_DEBUG_INFO_DWT_ADDR_INDEX)
T45F4 000:238.606   Value=0xE0001000
T45F4 000:238.620 - 0.027ms returns 0x00
T45F4 000:238.630 JLINK_GetDebugInfo(0x106 = JLINKARM_DEBUG_INFO_FPB_ADDR_INDEX)
T45F4 000:238.640   Value=0xE0002000
T45F4 000:238.653 - 0.027ms returns 0x00
T45F4 000:238.664 JLINK_GetDebugInfo(0x107 = JLINKARM_DEBUG_INFO_NVIC_ADDR_INDEX)
T45F4 000:238.673   Value=0xE000E000
T45F4 000:238.687 - 0.027ms returns 0x00
T45F4 000:238.698 JLINK_GetDebugInfo(0x10C = JLINKARM_DEBUG_INFO_DBG_ADDR_INDEX)
T45F4 000:238.707   Value=0xE000EDF0
T45F4 000:238.721 - 0.027ms returns 0x00
T45F4 000:238.732   JLINK_ReadMemU32(0xE000EF40, 0x0001 Items, ...)
T45F4 000:238.753    -- CPU_ReadMem(4 bytes @ 0xE000EF40)
T45F4 000:238.984   Data:  21 00 11 10
T45F4 000:239.000 - 0.272ms returns 1
T45F4 000:239.022   JLINK_ReadMemU32(0xE000EF44, 0x0001 Items, ...)
T45F4 000:239.039    -- CPU_ReadMem(4 bytes @ 0xE000EF44)
T45F4 000:239.227   Data:  11 00 00 11
T45F4 000:239.242 - 0.224ms returns 1
T45F4 000:239.262   JLINK_ReadMemU32(0xE000ED00, 0x0001 Items, ...)
T45F4 000:239.277    -- CPU_ReadMem(4 bytes @ 0xE000ED00)
T45F4 000:239.463   Data:  41 C2 0F 41
T45F4 000:239.478    - CPUID
T45F4 000:239.492 - 0.235ms returns 1
T45F4 000:239.512 JLINK_GetDebugInfo(0x10F = JLINKARM_DEBUG_INFO_HAS_CORTEX_M_SECURITY_EXT_INDEX)
T45F4 000:239.522   Value=0x00000000
T45F4 000:239.536 - 0.028ms returns 0x00
T45F4 000:239.549 JLINK_SetResetType(JLINKARM_CM3_RESET_TYPE_NORMAL)
T45F4 000:239.562 - 0.017ms returns JLINKARM_CM3_RESET_TYPE_NORMAL
T45F4 000:239.573 JLINK_Reset()
T45F4 000:239.784   CPU is running
T45F4 000:239.799    -- CPU_WriteMem(4 bytes @ 0xE000EDF0)
T45F4 000:240.041   CPU is running
T45F4 000:240.055    -- CPU_WriteMem(4 bytes @ 0xE000EDFC)
T45F4 000:240.279   Reset: Halt core after reset via DEMCR.VC_CORERESET.
T45F4 000:240.785   Reset: Reset device via AIRCR.SYSRESETREQ.
T45F4 000:240.802   CPU is running
T45F4 000:240.818    -- CPU_WriteMem(4 bytes @ 0xE000ED0C)
T45F4 000:294.221    -- CPU_ReadMem(4 bytes @ 0xE000EDF0)
T45F4 000:294.782    -- CPU_ReadMem(4 bytes @ 0xE000EDF0)
T45F4 000:295.362   CPU is running
T45F4 000:295.418    -- CPU_WriteMem(4 bytes @ 0xE000EDF0)
T45F4 000:295.942   CPU is running
T45F4 000:296.014    -- CPU_WriteMem(4 bytes @ 0xE000EDFC)
T45F4 000:302.526    -- CPU_ReadMem(4 bytes @ 0xE000EDF0)
T45F4 000:305.344    -- CPU_WriteMem(4 bytes @ 0xE0002000)
T45F4 000:305.898    -- CPU_ReadMem(4 bytes @ 0xE000EDFC)
T45F4 000:306.399    -- CPU_ReadMem(4 bytes @ 0xE0001000)
T45F4 000:306.975 - 67.432ms
T45F4 000:307.100 JLINK_ReadReg(R15 (PC))
T45F4 000:307.130 - 0.041ms returns 0x00000294
T45F4 000:307.153 JLINK_ReadReg(XPSR)
T45F4 000:307.174 - 0.031ms returns 0x01000000
T45F4 000:307.204 JLINK_Halt()
T45F4 000:307.224 - 0.030ms returns 0x00
T45F4 000:307.247   JLINK_ReadMemU32(0xE000EDF0, 0x0001 Items, ...)
T45F4 000:307.285    -- CPU_ReadMem(4 bytes @ 0xE000EDF0)
T45F4 000:313.370   Data:  03 00 03 00
T45F4 000:313.393    - DHCSR
T45F4 000:313.406 - 6.163ms returns 1
T45F4 000:313.446   JLINK_WriteU32(0xE000EDF0, 0xA05F0003)
T45F4 000:313.461    - DHCSR
T45F4 000:313.486    -- CPU_WriteMem(4 bytes @ 0xE000EDF0)
T45F4 000:314.145 - 0.713ms returns 0
T45F4 000:314.189   JLINK_WriteU32(0xE000EDFC, 0x01000000)
T45F4 000:314.204    - DEMCR
T45F4 000:314.221    -- CPU_WriteMem(4 bytes @ 0xE000EDFC)
T45F4 000:314.567 - 0.393ms returns 0
T45F4 000:314.642 JLINK_GetHWStatus(...)
T45F4 000:314.913 - 0.285ms returns 0x00
T45F4 000:314.970 JLINK_GetNumBPUnits(Type = 0xFFFFFF00)
T45F4 000:314.981 - 0.016ms returns 0x06
T45F4 000:314.991 JLINK_GetNumBPUnits(Type = 0xF0)
T45F4 000:315.000 - 0.013ms returns 0x2000
T45F4 000:315.010 JLINK_GetNumWPUnits()
T45F4 000:315.018 - 0.013ms returns 0x04
T45F4 000:315.033 JLINK_GetSpeed()
T45F4 000:315.043 - 0.013ms returns 0x3A98
T45F4 000:315.056   JLINK_ReadMemU32(0xE000E004, 0x0001 Items, ...)
T45F4 000:315.080    -- CPU_ReadMem(4 bytes @ 0xE000E004)
T45F4 000:315.350   Data:  04 00 00 00
T45F4 000:315.375 - 0.323ms returns 1
T45F4 000:315.412   JLINK_ReadMemU32(0xE000E004, 0x0001 Items, ...)
T45F4 000:315.444    -- CPU_ReadMem(4 bytes @ 0xE000E004)
T45F4 000:315.727   Data:  04 00 00 00
T45F4 000:315.751 - 0.343ms returns 1
T45F4 000:315.788 JLINK_WriteMemEx(0xE0001000, 0x001C Bytes, ..., Flags = 0x02000004)
T45F4 000:315.799   Data:  01 00 00 00 00 00 00 00 00 00 00 00 00 00 00 00 ...
T45F4 000:316.009    -- CPU_WriteMem(28 bytes @ 0xE0001000)
T45F4 000:316.298 - 0.524ms returns 0x1C
T45F4 000:316.352 JLINK_ReadReg(R15 (PC))
T45F4 000:316.368 - 0.020ms returns 0x00000294
T45F4 000:316.378 JLINK_ReadReg(XPSR)
T45F4 000:316.388 - 0.014ms returns 0x01000000
T45F4 000:460.637 JLINK_SetResetType(JLINKARM_CM3_RESET_TYPE_NORMAL)
T45F4 000:460.667 - 0.034ms returns JLINKARM_CM3_RESET_TYPE_NORMAL
T45F4 000:460.677 JLINK_Reset()
T45F4 000:464.061    -- CPU_WriteMem(4 bytes @ 0xE000EDF0)
T45F4 000:464.448    -- CPU_WriteMem(4 bytes @ 0xE000EDFC)
T45F4 000:464.881   Reset: Halt core after reset via DEMCR.VC_CORERESET.
T45F4 000:465.542   Reset: Reset device via AIRCR.SYSRESETREQ.
T45F4 000:465.605    -- CPU_WriteMem(4 bytes @ 0xE000ED0C)
T45F4 000:518.698    -- CPU_ReadMem(4 bytes @ 0xE000EDF0)
T45F4 000:519.304    -- CPU_ReadMem(4 bytes @ 0xE000EDF0)
T45F4 000:519.821    -- CPU_WriteMem(4 bytes @ 0xE000EDF0)
T45F4 000:520.292    -- CPU_WriteMem(4 bytes @ 0xE000EDFC)
T45F4 000:526.543    -- CPU_ReadMem(4 bytes @ 0xE000EDF0)
T45F4 000:528.739    -- CPU_WriteMem(4 bytes @ 0xE0002000)
T45F4 000:529.065    -- CPU_ReadMem(4 bytes @ 0xE000EDFC)
T45F4 000:529.401    -- CPU_ReadMem(4 bytes @ 0xE0001000)
T45F4 000:529.704 - 69.041ms
T45F4 000:529.880 JLINK_ReadReg(R15 (PC))
T45F4 000:529.918 - 0.055ms returns 0x00000294
T45F4 000:529.949 JLINK_ReadReg(XPSR)
T45F4 000:529.975 - 0.037ms returns 0x01000000
T45F4 000:530.549   JLINK_ReadMemEx(0x00000294, 0x003C Bytes, ..., Flags = 0x02000000)
T45F4 000:530.609    -- CPU_ReadMem(60 bytes @ 0x00000294)
T45F4 000:536.104   Data:  12 48 4F F0 1F 01 01 60 11 48 4F F0 77 01 01 60 ...
T45F4 000:536.119 - 5.577ms returns 0x3C
T7200 001:613.112   JLINK_ReadMemEx(0x00000294, 0x0002 Bytes, ..., Flags = 0x02000000)
T7200 001:613.157    -- CPU_ReadMem(2 bytes @ 0x00000294)
T7200 001:617.972   Data:  12 48
T7200 001:618.002 - 4.896ms returns 0x02
T7200 001:618.051   JLINK_SetBPEx(Addr = 0x00006354, Type = 0xFFFFFFF2)
T7200 001:618.070 - 0.024ms returns 0x00000001
T7200 001:618.089 JLINK_Go()
T7200 001:618.296    -- CPU_WriteMem(4 bytes @ 0xE0002000)
T7200 001:618.523    -- CPU_ReadMem(4 bytes @ 0xE0001000)
T7200 001:618.804    -- CPU_WriteMem(4 bytes @ 0xE0002008)
T7200 001:618.822    -- CPU_WriteMem(4 bytes @ 0xE000200C)
T7200 001:618.837    -- CPU_WriteMem(4 bytes @ 0xE0002010)
T7200 001:618.850    -- CPU_WriteMem(4 bytes @ 0xE0002014)
T7200 001:618.864    -- CPU_WriteMem(4 bytes @ 0xE0002018)
T7200 001:618.878    -- CPU_WriteMem(4 bytes @ 0xE000201C)
T7200 001:619.456    -- CPU_WriteMem(4 bytes @ 0xE0001004)
T7200 001:619.959 - 1.883ms
T7200 001:720.185 JLINK_IsHalted()
T7200 001:721.655 - 1.519ms returns TRUE
T7200 001:721.756 JLINK_Halt()
T7200 001:721.771 - 0.022ms returns 0x00
T7200 001:721.787 JLINK_IsHalted()
T7200 001:721.801 - 0.021ms returns TRUE
T7200 001:721.816 JLINK_IsHalted()
T7200 001:721.830 - 0.021ms returns TRUE
T7200 001:721.846 JLINK_IsHalted()
T7200 001:721.860 - 0.021ms returns TRUE
T7200 001:721.877 JLINK_ReadReg(R15 (PC))
T7200 001:721.894 - 0.023ms returns 0x00006354
T7200 001:721.909 JLINK_ReadReg(XPSR)
T7200 001:721.924 - 0.021ms returns 0x61000000
T7200 001:721.943 JLINK_ClrBPEx(BPHandle = 0x00000001)
T7200 001:721.958 - 0.022ms returns 0x00
T7200 001:721.976   JLINK_ReadMemU32(0xE000ED30, 0x0001 Items, ...)
T7200 001:722.002    -- CPU_ReadMem(4 bytes @ 0xE000ED30)
T7200 001:722.413   Data:  02 00 00 00
T7200 001:722.435 - 0.466ms returns 1
T7200 001:722.466   JLINK_ReadMemU32(0xE0001028, 0x0001 Items, ...)
T7200 001:722.490    -- CPU_ReadMem(4 bytes @ 0xE0001028)
T7200 001:722.760   Data:  00 00 00 00
T7200 001:722.783    - DWT_FUNC[0]
T7200 001:722.804 - 0.344ms returns 1
T7200 001:722.836   JLINK_ReadMemU32(0xE0001038, 0x0001 Items, ...)
T7200 001:722.857    -- CPU_ReadMem(4 bytes @ 0xE0001038)
T7200 001:723.182   Data:  00 02 00 00
T7200 001:723.203    - DWT_FUNC[1]
T7200 001:723.222 - 0.392ms returns 1
T7200 001:723.250   JLINK_ReadMemU32(0xE0001048, 0x0001 Items, ...)
T7200 001:723.271    -- CPU_ReadMem(4 bytes @ 0xE0001048)
T7200 001:723.484   Data:  00 00 00 00
T7200 001:723.505    - DWT_FUNC[2]
T7200 001:723.524 - 0.281ms returns 1
T7200 001:723.551   JLINK_ReadMemU32(0xE0001058, 0x0001 Items, ...)
T7200 001:723.572    -- CPU_ReadMem(4 bytes @ 0xE0001058)
T7200 001:723.781   Data:  00 00 00 00
T7200 001:723.801    - DWT_FUNC[3]
T7200 001:723.819 - 0.275ms returns 1
T7200 001:723.916 JLINK_ReadReg(R0)
T7200 001:723.931 - 0.021ms returns 0x00006355
T7200 001:723.945 JLINK_ReadReg(R1)
T7200 001:723.958 - 0.019ms returns 0x1FFFA7C8
T7200 001:723.972 JLINK_ReadReg(R2)
T7200 001:723.984 - 0.019ms returns 0x00000000
T7200 001:723.998 JLINK_ReadReg(R3)
T7200 001:724.011 - 0.019ms returns 0x0000589D
T7200 001:724.025 JLINK_ReadReg(R4)
T7200 001:724.038 - 0.019ms returns 0x0007FC04
T7200 001:724.052 JLINK_ReadReg(R5)
T7200 001:724.065 - 0.019ms returns 0x0007FC04
T7200 001:724.078 JLINK_ReadReg(R6)
T7200 001:724.091 - 0.019ms returns 0x00000000
T7200 001:724.105 JLINK_ReadReg(R7)
T7200 001:724.118 - 0.019ms returns 0x00000000
T7200 001:724.132 JLINK_ReadReg(R8)
T7200 001:724.152 - 0.026ms returns 0x00000000
T7200 001:724.166 JLINK_ReadReg(R9)
T7200 001:724.181 - 0.021ms returns 0x1FFF8568
T7200 001:724.195 JLINK_ReadReg(R10)
T7200 001:724.235 - 0.049ms returns 0x00000000
T7200 001:724.251 JLINK_ReadReg(R11)
T7200 001:724.264 - 0.019ms returns 0x00000000
T7200 001:724.278 JLINK_ReadReg(R12)
T7200 001:724.291 - 0.019ms returns 0x00000000
T7200 001:724.305 JLINK_ReadReg(R13 (SP))
T7200 001:724.318 - 0.019ms returns 0x1FFFA7C8
T7200 001:724.332 JLINK_ReadReg(R14)
T7200 001:724.345 - 0.019ms returns 0x00000A29
T7200 001:724.359 JLINK_ReadReg(R15 (PC))
T7200 001:724.372 - 0.019ms returns 0x00006354
T7200 001:724.385 JLINK_ReadReg(XPSR)
T7200 001:724.399 - 0.019ms returns 0x61000000
T7200 001:724.412 JLINK_ReadReg(MSP)
T7200 001:724.425 - 0.019ms returns 0x1FFFA7C8
T7200 001:724.439 JLINK_ReadReg(PSP)
T7200 001:724.452 - 0.019ms returns 0x1FFF9000
T7200 001:724.466 JLINK_ReadReg(CFBP)
T7200 001:724.479 - 0.019ms returns 0x00000000
T7200 001:724.492 JLINK_ReadReg(FPSCR)
T7200 001:726.132 - 1.654ms returns 0x00000000
T7200 001:726.167 JLINK_ReadReg(FPS0)
T7200 001:726.180 - 0.019ms returns 0x3193FF7A
T7200 001:726.193 JLINK_ReadReg(FPS1)
T7200 001:726.204 - 0.016ms returns 0x77EECFEF
T7200 001:726.215 JLINK_ReadReg(FPS2)
T7200 001:726.226 - 0.016ms returns 0xCCF85D5F
T7200 001:726.238 JLINK_ReadReg(FPS3)
T7200 001:726.249 - 0.016ms returns 0x8A77A423
T7200 001:726.261 JLINK_ReadReg(FPS4)
T7200 001:726.272 - 0.016ms returns 0xC1CF587B
T7200 001:726.283 JLINK_ReadReg(FPS5)
T7200 001:726.294 - 0.016ms returns 0xBCCA8F2F
T7200 001:726.306 JLINK_ReadReg(FPS6)
T7200 001:726.317 - 0.016ms returns 0x88C0D0EF
T7200 001:726.328 JLINK_ReadReg(FPS7)
T7200 001:726.339 - 0.016ms returns 0xB6D7176F
T7200 001:726.351 JLINK_ReadReg(FPS8)
T7200 001:726.361 - 0.016ms returns 0x3330D682
T7200 001:726.373 JLINK_ReadReg(FPS9)
T7200 001:726.384 - 0.016ms returns 0xFCF8D128
T7200 001:726.395 JLINK_ReadReg(FPS10)
T7200 001:726.406 - 0.016ms returns 0x60712C61
T7200 001:726.418 JLINK_ReadReg(FPS11)
T7200 001:726.429 - 0.016ms returns 0xBFFF6EA6
T7200 001:726.440 JLINK_ReadReg(FPS12)
T7200 001:726.451 - 0.016ms returns 0x308C2FC0
T7200 001:726.463 JLINK_ReadReg(FPS13)
T7200 001:726.474 - 0.016ms returns 0x3D0442A0
T7200 001:726.486 JLINK_ReadReg(FPS14)
T7200 001:726.496 - 0.016ms returns 0x5B2F6D6F
T7200 001:726.508 JLINK_ReadReg(FPS15)
T7200 001:726.519 - 0.016ms returns 0xB368EBD6
T7200 001:726.531 JLINK_ReadReg(FPS16)
T7200 001:726.541 - 0.016ms returns 0x6E3B6D6F
T7200 001:726.553 JLINK_ReadReg(FPS17)
T7200 001:726.564 - 0.016ms returns 0x8967F15B
T7200 001:726.576 JLINK_ReadReg(FPS18)
T7200 001:726.587 - 0.016ms returns 0x5A2ACA1A
T7200 001:726.599 JLINK_ReadReg(FPS19)
T7200 001:726.610 - 0.016ms returns 0x55D380FA
T7200 001:726.621 JLINK_ReadReg(FPS20)
T7200 001:726.632 - 0.016ms returns 0xBBB13CB1
T7200 001:726.644 JLINK_ReadReg(FPS21)
T7200 001:726.655 - 0.016ms returns 0x3B8487DA
T7200 001:726.666 JLINK_ReadReg(FPS22)
T7200 001:726.678 - 0.017ms returns 0xDC7FC937
T7200 001:726.690 JLINK_ReadReg(FPS23)
T7200 001:726.701 - 0.016ms returns 0xE9E01C17
T7200 001:726.713 JLINK_ReadReg(FPS24)
T7200 001:726.724 - 0.016ms returns 0xFD91D10A
T7200 001:726.736 JLINK_ReadReg(FPS25)
T7200 001:726.747 - 0.016ms returns 0x16F181ED
T7200 001:726.758 JLINK_ReadReg(FPS26)
T7200 001:726.769 - 0.016ms returns 0xDF4CB5D6
T7200 001:726.781 JLINK_ReadReg(FPS27)
T7200 001:726.792 - 0.016ms returns 0xB82F7581
T7200 001:726.804 JLINK_ReadReg(FPS28)
T7200 001:726.815 - 0.016ms returns 0x3D4C58A4
T7200 001:726.827 JLINK_ReadReg(FPS29)
T7200 001:726.838 - 0.016ms returns 0xDBB2DA6E
T7200 001:726.850 JLINK_ReadReg(FPS30)
T7200 001:726.861 - 0.016ms returns 0x3C8B2114
T7200 001:726.872 JLINK_ReadReg(FPS31)
T7200 001:726.884 - 0.016ms returns 0x32E962B3
T45F4 001:731.093   JLINK_ReadMemU32(0xE0001004, 0x0001 Items, ...)
T45F4 001:731.123    -- CPU_ReadMem(4 bytes @ 0xE0001004)
T45F4 001:732.285   Data:  A0 44 00 00
T45F4 001:732.313    - DWT_CYCCNT
T45F4 001:732.328 - 1.240ms returns 1
T45F4 001:734.321   JLINK_ReadMemEx(0x00006254, 0x003C Bytes, ..., Flags = 0x02000000)
T45F4 001:734.352    -- CPU_ReadMem(128 bytes @ 0x00006240)
T45F4 001:734.820    -- Updating DA cache (128 bytes @ 0x00006240)
T45F4 001:734.836    -- Read from DA cache (60 bytes @ 0x00006254)
T45F4 001:734.851   Data:  E0 50 04 49 06 20 00 F0 21 F9 07 B0 F0 BD 00 00 ...
T45F4 001:734.865 - 0.549ms returns 0x3C
T45F4 001:734.891   JLINK_ReadMemEx(0x00006290, 0x003C Bytes, ..., Flags = 0x02000000)
T45F4 001:734.908    -- CPU_ReadMem(64 bytes @ 0x000062C0)
T45F4 001:735.215    -- Updating DA cache (64 bytes @ 0x000062C0)
T45F4 001:735.230    -- Read from DA cache (60 bytes @ 0x00006290)
T45F4 001:735.272   Data:  28 78 5A 28 1B D1 A8 78 21 68 40 1D 88 42 1D D8 ...
T45F4 001:735.286 - 0.399ms returns 0x3C
T45F4 001:735.309   JLINK_ReadMemEx(0x000062CC, 0x003C Bytes, ..., Flags = 0x02000000)
T45F4 001:735.324    -- CPU_ReadMem(64 bytes @ 0x00006300)
T45F4 001:735.643    -- Updating DA cache (64 bytes @ 0x00006300)
T45F4 001:735.693    -- Read from DA cache (60 bytes @ 0x000062CC)
T45F4 001:735.707   Data:  A1 FF 26 60 BD E8 70 40 80 21 03 48 FA F7 58 B8 ...
T45F4 001:735.721 - 0.417ms returns 0x3C
T45F4 001:735.743   JLINK_ReadMemEx(0x00006308, 0x003C Bytes, ..., Flags = 0x02000000)
T45F4 001:735.758    -- CPU_ReadMem(64 bytes @ 0x00006340)
T45F4 001:736.063    -- Updating DA cache (64 bytes @ 0x00006340)
T45F4 001:736.077    -- Read from DA cache (60 bytes @ 0x00006308)
T45F4 001:736.115   Data:  B0 F5 FA 7F 19 D9 0F 4D 28 78 00 28 01 A8 00 90 ...
T45F4 001:736.129 - 0.391ms returns 0x3C
T45F4 001:736.151   JLINK_ReadMemEx(0x00006344, 0x003C Bytes, ..., Flags = 0x02000000)
T45F4 001:736.167    -- Read from DA cache (60 bytes @ 0x00006344)
T45F4 001:736.181   Data:  1C 82 FF 1F 0C 82 FF 1F 08 82 FF 1F 5C 82 FF 1F ...
T45F4 001:736.195 - 0.048ms returns 0x3C
T45F4 002:780.639 JLINK_Close()
T45F4 002:781.055    -- CPU_WriteMem(4 bytes @ 0xE0002008)
T45F4 002:781.358    -- CPU_ReadMem(4 bytes @ 0xE0001000)
T45F4 002:782.475 - 1.853ms
T45F4 002:782.498   
T45F4 002:782.507   Closed
